# GHz S RI R 50

2.205000000000000e+00 -6.3066529856556043e-03 -6.5728184922397057e-02 -5.7435188108945356e-01  3.4499228484385652e-01  5.5924692194411807e-01  4.5140324839287727e-01
                        -5.7435188108945323e-01  3.4499228484386146e-01 -1.0615952271010998e-01 -2.2362168709361360e-01  1.0087611925640001e-01 -2.7422579481172205e-02
                         5.5924692194412085e-01  4.5140324839287782e-01  1.0087611925639874e-01 -2.7422579481173673e-02  4.6306330599259704e-02  3.5017377690363068e-02
2.229500000000000e+00 -2.5600618745027247e-02 -6.4591457315251857e-02 -5.3231407853394264e-01  4.0566602756843501e-01  5.8778723134127708e-01  4.1349602417651077e-01
                        -5.3231407853394663e-01  4.0566602756843417e-01 -1.3071754890324822e-01 -2.1571897841105020e-01  8.9520694724182601e-02 -3.6571338969707726e-02
                         5.8778723134127409e-01  4.1349602417651160e-01  8.9520694724188485e-02 -3.6571338969709016e-02  5.1726622366431448e-02  3.2325751666497739e-02
2.254000000000000e+00 -4.4291818761115473e-02 -6.0560582537916109e-02 -4.8409190799651697e-01  4.6135705799465826e-01  6.1345726716520832e-01  3.7363645465044770e-01
                        -4.8409190799651403e-01  4.6135705799464760e-01 -1.5425671712425182e-01 -2.0386252658617945e-01  7.7147431926929341e-02 -4.3600481681998510e-02
                         6.1345726716520632e-01  3.7363645465043960e-01  7.7147431926929050e-02 -4.3600481681988240e-02  5.7091179365868272e-02  2.9014885598479635e-02
2.278500000000000e+00 -6.1898066090665053e-02 -5.3815939333478870e-02 -4.3025170144122110e-01  5.1149327102758479e-01  6.3610065906055147e-01  3.3211350518124766e-01
                        -4.3025170144122543e-01  5.1149327102755804e-01 -1.7609645675023319e-01 -1.8816655816406089e-01  6.4100373260328330e-02 -4.8426441426415265e-02
                         6.3610065906052804e-01  3.3211350518122812e-01  6.4100373260343319e-02 -4.8426441426396745e-02  6.2320344880277018e-02  2.5048839246884155e-02
2.303000000000000e+00 -7.7982830396085057e-02 -4.4623657875098567e-02 -3.7139587987256711e-01  5.5556216792637847e-01  6.5560535970855427e-01  2.8923111877264890e-01
                        -3.7139587987251704e-01  5.5556216792639102e-01 -1.9556369349073749e-01 -1.6886135427451932e-01  5.0723091253436159e-02 -5.1014860723158570e-02
                         6.5560535970858447e-01  2.8923111877263780e-01  5.0723091253398259e-02 -5.1014860723162379e-02  6.7322166097962266e-02  2.0405019352642630e-02
2.327500000000000e+00 -9.2170606796542404e-02 -3.3324955869792609e-02 -3.0815761473594644e-01  5.9310750406853641e-01  6.7190498939425636e-01  2.4529902522231903e-01
                        -3.0815761473596343e-01  5.9310750406853252e-01 -2.1201166307952921e-01 -1.4629409719216360e-01  3.7353225695577988e-02 -5.1377782161216773e-02
                         6.7190498939425258e-01  2.4529902522232463e-01  3.7353225695587376e-02 -5.1377782161216197e-02  7.1995452195896023e-02  1.5077403300795046e-02
2.352000000000000e+00 -1.0415991330501034e-01 -2.0322857102342502e-02 -2.4119802579853949e-01  6.2372561913305646e-01  6.8497803472772434e-01  2.0062359517503595e-01
                        -2.4119802579853891e-01  6.2372561913305713e-01 -2.2483894645096369e-01 -1.2092712767073098e-01  2.4318195978626864e-02 -4.9570767923575496e-02
                         6.8497803472772667e-01  2.0062359517503794e-01  2.4318195978623426e-02 -4.9570767923574344e-02  7.6233660632349917e-02  9.0788837139052971e-03
2.376500000000000e+00 -1.1373355544159679e-01 -6.0668132200072961e-03 -1.7120591209071223e-01  6.4706243197422508e-01  6.9484500828974494e-01  1.5549926432052658e-01
                        -1.7120591209072167e-01  6.4706243197421631e-01 -2.3350860896212908e-01 -9.3333840169685947e-02  1.1931817681579401e-02 -4.5690413391270959e-02
                         6.9484500828974494e-01  1.5549926432052746e-01  1.1931817681583129e-02 -4.5690413391267302e-02  7.9929318571838770e-02  2.4425041262140287e-03
2.401000000000000e+00 -1.2076592261407930e-01  8.9642512827562814e-03 -9.8899645621968207e-02  6.6281206980438057e-01  7.0156381449484850e-01  1.1020098676795759e-01
                        -9.8899645621965751e-02  6.6281206980437879e-01 -2.3756761676603047e-01 -6.4192281022144651e-02  4.9134096294593929e-04 -3.9872552402989397e-02
                         7.0156381449484850e-01  1.1020098676795989e-01  4.9134096294421855e-04 -3.9872552402984526e-02  8.2978611673021729e-02 -4.7785279381127380e-03
2.425500000000000e+00 -1.2522716607505155e-01  2.4279994123621022e-02 -2.5030516061092453e-02  6.7071793643435895e-01  7.0522366249676538e-01  6.4978067104195514e-02
                        -2.5030516061096388e-02  6.7071793643436373e-01 -2.3666683957680751e-01 -3.4276118151860997e-02 -9.7256792936688818e-03 -3.2291175067939985e-02
                         7.0522366249676705e-01  6.4978067104194223e-02 -9.7256792936700458e-03 -3.2291175067946015e-02  8.5285757693226036e-02 -1.2512019785269536e-02
2.450000000000000e+00 -1.2718413131075440e-01  3.9397383177224764e-02  4.9613430394204544e-02  6.7057674603732065e-01  7.0593790369368081e-01  2.0049601265948812e-02
                         4.9613430394191832e-02  6.7057674603733497e-01 -2.3058176822365528e-01 -4.4421560927361270e-03 -1.8465219776228853e-02 -2.3157771654352934e-02
                         7.0593790369368792e-01  2.0049601265938834e-02 -1.8465219776221779e-02 -2.3157771654363796e-02  8.6766836191909974e-02 -2.0669000938714422e-02
2.474500000000000e+00 -1.2679788731150965e-01  5.3859678839378401e-02  1.2420413811914062e-01  6.6224572864576170e-01  7.0383616188686848e-01 -2.4398336147554812e-02
                         1.2420413811913619e-01  6.6224572864576869e-01 -2.1923354489318311e-01  2.4386789850037997e-02 -2.5501668204290430e-02 -1.2720577333272575e-02
                         7.0383616188687248e-01 -2.4398336147562396e-02 -2.5501668204283040e-02 -1.2720577333278582e-02  8.7352846898909153e-02 -2.9146712233455749e-02
2.499000000000000e+00 -1.2431765141436230e-01  6.7255187199935548e-02  1.9787198718454233e-01  6.4565290743057324e-01  6.9905610382531591e-01 -6.8213669873121177e-02
                         1.9787198718453730e-01  6.4565290743058479e-01 -2.0270915678734783e-01  5.1244866508067581e-02 -3.0643803080433286e-02 -1.2630875601189627e-03
                         6.9905610382531280e-01 -6.8213669873134361e-02 -3.0643803080443139e-02 -1.2630875601347740e-03  8.6991877596525907e-02 -3.7832106744097670e-02
2.523500000000000e+00 -1.2007090614096055e-01  7.9235159936204835e-02  2.6970703645640509e-01  6.2081006080380952e-01  6.9173520214875928e-01 -1.1127739920769884e-01
                         2.6970703645636679e-01  6.2081006080384193e-01 -1.8127890748897932e-01  7.5152816789006899e-02 -3.3741659060549094e-02  1.0898756827342300e-02
                         6.9173520214879114e-01 -1.1127739920771354e-01 -3.3741659060509285e-02  1.0898756827328103e-02  8.5650343823495650e-02 -4.6605612356638480e-02
2.548000000000000e+00 -1.1444958957043957e-01  8.9530033071670415e-02  3.3876412574494164e-01  5.8782767783110834e-01  6.8200288519163343e-01 -1.5350072873988102e-01
                         3.3876412574498416e-01  5.8782767783110168e-01 -1.5540875808064755e-01  9.5154355050832917e-02 -3.4693850602337643e-02  2.3421198743592768e-02
                         6.8200288519160635e-01 -1.5350072873988729e-01 -3.4693850602376466e-02  2.3421198743589909e-02  8.3313308840764322e-02 -5.5344935229411939e-02
2.572500000000000e+00 -1.0789243485061301e-01  9.7963019736526866e-02  4.0407279748483743e-01  5.4693085798541852e-01  6.6997353382874292e-01 -1.9482027901875618e-01
                         4.0407279748484370e-01  5.4693085798543417e-01 -1.2576493306252259e-01  1.1035843130546608e-01 -3.3454776427504301e-02  3.5939436440087326e-02
                         6.6997353382874791e-01 -1.9482027901877202e-01 -3.3454776427500797e-02  3.5939436440070471e-02  7.9983918216153749e-02 -6.3928699611175019e-02
2.597000000000000e+00 -1.0086383452173675e-01  1.0445995583472910e-01  4.6465276787917131e-01  4.9847470369843555e-01  6.5574084155101964e-01 -2.3519152307038513e-01
                         4.6465276787923393e-01  4.9847470369843799e-01 -9.3208345247242405e-02  1.1998553569954547e-01 -3.0041018705864134e-02  4.8076691094528272e-02
                         6.5574084155098544e-01 -2.3519152307039898e-01 -3.0041018705891837e-02  4.8076691094523442e-02  7.5682012740702576e-02 -7.2239719435153685e-02
2.621500000000000e+00 -9.3829986396824314e-02  1.0905429107778589e-01  5.1953525669048628e-01  4.4295737113546124e-01  6.3937406471475011e-01 -2.7458076463472542e-01
                         5.1953525669050571e-01  4.4295737113548123e-01 -5.8776906943564848e-02  1.2341524390575126e-01 -2.4536172135034159e-02  5.9455521139424997e-02
                         6.3937406471474201e-01 -2.7458076463475378e-01 -2.4536172135049456e-02  5.9455521139406629e-02  7.0442030998269831e-02 -8.0167694947837029e-02
2.646000000000000e+00 -8.7233497325804640e-02  1.1188626132304581e-01  5.6778985778014390e-01  3.8102868652645966e-01  6.2091662862393748e-01 -3.1295616796039483e-01
                         5.6778985778012847e-01  3.8102868652644206e-01 -2.3654656384601916e-02  1.2023140107710512e-01 -1.7093303000558741e-02  6.9711087559894830e-02
                         6.2091662862394648e-01 -3.1295616796037101e-01 -1.7093303000544083e-02  6.9711087559919602e-02  6.4310379193648584e-02 -8.7611142835961692e-02
2.670500000000000e+00 -8.1468017110087720e-02  1.1319559657838874e-01  6.0855584539799457e-01  3.1349221787496806e-01  6.0038740930052870e-01 -3.5027853160175448e-01
                         6.0855584539800689e-01  3.1349221787496739e-01  1.0872184045386197e-02  1.1026081109329217e-01 -7.9342818308645591e-03  7.8505785558061675e-02
                         6.0038740930051593e-01 -3.5027853160175909e-01 -7.9342818308811274e-03  7.8505785558064325e-02  5.7342517553586304e-02 -9.4478415535145618e-02
2.695000000000000e+00 -7.6854770291133065e-02  1.1330761248567096e-01  6.4107597369237335e-01  2.4129900425571632e-01  5.7778478442923409e-01 -3.8649263117204230e-01
                         6.4107597369236469e-01  2.4129900425571704e-01  4.3470662959875297e-02  9.3601185505896189e-02  2.6546083130241315e-03  8.5544357480757366e-02
                         5.7778478442923809e-01 -3.8649263117203686e-01  2.6546083130286023e-03  8.5544357480761307e-02  4.9600070484972100e-02 -1.0068774856253243e-01
